
Note: No compatibility mode selected!


Circuit: * selfe_tuned_filter.cir - generated for ngspice batch simulation

binary raw file "selfe_tuned_filter.raw"
Reducing trtol to 1 for xspice 'A' devices
Doing analysis at TEMP = 27.000000 and TNOM = 27.000000

Using SPARSE 1.3 as Direct Linear Solver

No. of Data Rows : 131
       * selfe_tuned_filter.cir - generated for ngspice batch simulation
       AC Analysis  Tue Sep 16 22:15:58  2025
--------------------------------------------------------------------------------
Index   frequency       v(bpf)                          
--------------------------------------------------------------------------------
0	5.000000e+01	-4.30828e-07,	-1.84645e-05	
1	5.116558e+01	-1.83679e-07,	-1.88950e-05	
2	5.235834e+01	7.512625e-08,	-1.93355e-05	
3	5.357890e+01	3.461391e-07,	-1.97862e-05	
4	5.482791e+01	6.299349e-07,	-2.02475e-05	
5	5.610604e+01	9.271167e-07,	-2.07195e-05	
6	5.741397e+01	1.238316e-06,	-2.12026e-05	
7	5.875238e+01	1.564193e-06,	-2.16969e-05	
8	6.012200e+01	1.905441e-06,	-2.22027e-05	
9	6.152354e+01	2.262786e-06,	-2.27203e-05	
10	6.295776e+01	2.636985e-06,	-2.32500e-05	
11	6.442541e+01	3.028834e-06,	-2.37921e-05	
12	6.592727e+01	3.439166e-06,	-2.43467e-05	
13	6.746414e+01	3.868852e-06,	-2.49143e-05	
14	6.903684e+01	4.318805e-06,	-2.54952e-05	
15	7.064621e+01	4.789982e-06,	-2.60896e-05	
16	7.229309e+01	5.283383e-06,	-2.66978e-05	
17	7.397836e+01	5.800057e-06,	-2.73203e-05	
18	7.570292e+01	6.341101e-06,	-2.79572e-05	
19	7.746768e+01	6.907665e-06,	-2.86090e-05	
20	7.927358e+01	7.500953e-06,	-2.92760e-05	
21	8.112158e+01	8.122225e-06,	-2.99586e-05	
22	8.301266e+01	8.772801e-06,	-3.06571e-05	
23	8.494782e+01	9.454063e-06,	-3.13718e-05	
24	8.692809e+01	1.016746e-05,	-3.21033e-05	
25	8.895453e+01	1.091451e-05,	-3.28518e-05	
26	9.102821e+01	1.169679e-05,	-3.36177e-05	
27	9.315023e+01	1.251597e-05,	-3.44015e-05	
28	9.532172e+01	1.337379e-05,	-3.52036e-05	
29	9.754382e+01	1.427208e-05,	-3.60244e-05	
30	9.981773e+01	1.521273e-05,	-3.68644e-05	
31	1.021446e+02	1.619776e-05,	-3.77239e-05	
32	1.045258e+02	1.722924e-05,	-3.86035e-05	
33	1.069625e+02	1.830939e-05,	-3.95036e-05	
34	1.094560e+02	1.944048e-05,	-4.04247e-05	
35	1.120076e+02	2.062492e-05,	-4.13673e-05	
36	1.146186e+02	2.186523e-05,	-4.23319e-05	
37	1.172906e+02	2.316405e-05,	-4.33190e-05	
38	1.200248e+02	2.452413e-05,	-4.43291e-05	
39	1.228228e+02	2.594837e-05,	-4.53628e-05	
40	1.256860e+02	2.743978e-05,	-4.64206e-05	
41	1.286160e+02	2.900155e-05,	-4.75031e-05	
42	1.316142e+02	3.063699e-05,	-4.86108e-05	
43	1.346824e+02	3.234957e-05,	-4.97444e-05	
44	1.378220e+02	3.414293e-05,	-5.09045e-05	
45	1.410349e+02	3.602089e-05,	-5.20916e-05	
46	1.443226e+02	3.798743e-05,	-5.33064e-05	
47	1.476870e+02	4.004674e-05,	-5.45496e-05	
48	1.511299e+02	4.220318e-05,	-5.58218e-05	
49	1.546530e+02	4.446135e-05,	-5.71237e-05	
50	1.582582e+02	4.682604e-05,	-5.84560e-05	
51	1.619474e+02	4.930228e-05,	-5.98194e-05	
52	1.657227e+02	5.189532e-05,	-6.12146e-05	
53	1.695860e+02	5.461069e-05,	-6.26424e-05	
54	1.735393e+02	5.745414e-05,	-6.41036e-05	

Index   frequency       v(bpf)                          
--------------------------------------------------------------------------------
55	1.775848e+02	6.043173e-05,	-6.55989e-05	
56	1.817246e+02	6.354978e-05,	-6.71290e-05	
57	1.859609e+02	6.681493e-05,	-6.86950e-05	
58	1.902959e+02	7.023410e-05,	-7.02975e-05	
59	1.947321e+02	7.381456e-05,	-7.19374e-05	
60	1.992716e+02	7.756394e-05,	-7.36157e-05	
61	2.039169e+02	8.149019e-05,	-7.53332e-05	
62	2.086706e+02	8.560166e-05,	-7.70908e-05	
63	2.135350e+02	8.990709e-05,	-7.88895e-05	
64	2.185129e+02	9.441563e-05,	-8.07302e-05	
65	2.236068e+02	9.913687e-05,	-8.26140e-05	
66	2.288194e+02	1.040808e-04,	-8.45418e-05	
67	2.341536e+02	1.092581e-04,	-8.65147e-05	
68	2.396121e+02	1.146795e-04,	-8.85337e-05	
69	2.451979e+02	1.203568e-04,	-9.05999e-05	
70	2.509138e+02	1.263019e-04,	-9.27145e-05	
71	2.567631e+02	1.325274e-04,	-9.48786e-05	
72	2.627486e+02	1.390467e-04,	-9.70933e-05	
73	2.688737e+02	1.458736e-04,	-9.93599e-05	
74	2.751416e+02	1.530226e-04,	-1.01680e-04	
75	2.815556e+02	1.605089e-04,	-1.04053e-04	
76	2.881192e+02	1.683484e-04,	-1.06483e-04	
77	2.948357e+02	1.765578e-04,	-1.08969e-04	
78	3.017088e+02	1.851546e-04,	-1.11514e-04	
79	3.087422e+02	1.941570e-04,	-1.14118e-04	
80	3.159394e+02	2.035842e-04,	-1.16784e-04	
81	3.233045e+02	2.134562e-04,	-1.19512e-04	
82	3.308413e+02	2.237941e-04,	-1.22304e-04	
83	3.385537e+02	2.346198e-04,	-1.25161e-04	
84	3.464460e+02	2.459564e-04,	-1.28085e-04	
85	3.545222e+02	2.578279e-04,	-1.31079e-04	
86	3.627867e+02	2.702597e-04,	-1.34142e-04	
87	3.712439e+02	2.832782e-04,	-1.37277e-04	
88	3.798982e+02	2.969111e-04,	-1.40486e-04	
89	3.887543e+02	3.111875e-04,	-1.43771e-04	
90	3.978168e+02	3.261376e-04,	-1.47133e-04	
91	4.070905e+02	3.417933e-04,	-1.50573e-04	
92	4.165805e+02	3.581880e-04,	-1.54095e-04	
93	4.262917e+02	3.753566e-04,	-1.57700e-04	
94	4.362292e+02	3.933356e-04,	-1.61390e-04	
95	4.463985e+02	4.121633e-04,	-1.65166e-04	
96	4.568048e+02	4.318798e-04,	-1.69032e-04	
97	4.674536e+02	4.525270e-04,	-1.72989e-04	
98	4.783508e+02	4.741491e-04,	-1.77040e-04	
99	4.895019e+02	4.967920e-04,	-1.81186e-04	
100	5.009130e+02	5.205040e-04,	-1.85430e-04	
101	5.125901e+02	5.453356e-04,	-1.89774e-04	
102	5.245394e+02	5.713397e-04,	-1.94222e-04	
103	5.367673e+02	5.985718e-04,	-1.98774e-04	
104	5.492803e+02	6.270900e-04,	-2.03435e-04	
105	5.620849e+02	6.569550e-04,	-2.08206e-04	
106	5.751880e+02	6.882305e-04,	-2.13091e-04	
107	5.885966e+02	7.209833e-04,	-2.18091e-04	
108	6.023178e+02	7.552833e-04,	-2.23211e-04	
109	6.163588e+02	7.912035e-04,	-2.28452e-04	
110	6.307272e+02	8.288208e-04,	-2.33818e-04	
111	6.454305e+02	8.682153e-04,	-2.39313e-04	
112	6.604765e+02	9.094713e-04,	-2.44938e-04	

Index   frequency       v(bpf)                          
--------------------------------------------------------------------------------
113	6.758733e+02	9.526769e-04,	-2.50698e-04	
114	6.916291e+02	9.979243e-04,	-2.56596e-04	
115	7.077521e+02	1.045310e-03,	-2.62635e-04	
116	7.242510e+02	1.094936e-03,	-2.68819e-04	
117	7.411344e+02	1.146908e-03,	-2.75152e-04	
118	7.584115e+02	1.201336e-03,	-2.81637e-04	
119	7.760914e+02	1.258339e-03,	-2.88278e-04	
120	7.941833e+02	1.318037e-03,	-2.95080e-04	
121	8.126971e+02	1.380558e-03,	-3.02046e-04	
122	8.316424e+02	1.446036e-03,	-3.09180e-04	
123	8.510294e+02	1.514612e-03,	-3.16488e-04	
124	8.708683e+02	1.586433e-03,	-3.23973e-04	
125	8.911696e+02	1.661652e-03,	-3.31640e-04	
126	9.119443e+02	1.740431e-03,	-3.39495e-04	
127	9.332032e+02	1.822939e-03,	-3.47541e-04	
128	9.549577e+02	1.909352e-03,	-3.55784e-04	
129	9.772194e+02	1.999858e-03,	-3.64230e-04	
130	1.000000e+03	2.094650e-03,	-3.72883e-04	

       * selfe_tuned_filter.cir - generated for ngspice batch simulation
       AC Analysis  Tue Sep 16 22:15:58  2025
--------------------------------------------------------------------------------
Index   frequency       v(lpf)                          
--------------------------------------------------------------------------------
0	5.000000e+01	9.999786e-01,	-7.50413e-05	
1	5.116558e+01	9.999789e-01,	-7.67907e-05	
2	5.235834e+01	9.999791e-01,	-7.85808e-05	
3	5.357890e+01	9.999794e-01,	-8.04127e-05	
4	5.482791e+01	9.999797e-01,	-8.22873e-05	
5	5.610604e+01	9.999800e-01,	-8.42055e-05	
6	5.741397e+01	9.999803e-01,	-8.61686e-05	
7	5.875238e+01	9.999806e-01,	-8.81773e-05	
8	6.012200e+01	9.999810e-01,	-9.02329e-05	
9	6.152354e+01	9.999813e-01,	-9.23365e-05	
10	6.295776e+01	9.999817e-01,	-9.44890e-05	
11	6.442541e+01	9.999821e-01,	-9.66918e-05	
12	6.592727e+01	9.999825e-01,	-9.89459e-05	
13	6.746414e+01	9.999829e-01,	-1.01253e-04	
14	6.903684e+01	9.999834e-01,	-1.03613e-04	
15	7.064621e+01	9.999838e-01,	-1.06028e-04	
16	7.229309e+01	9.999843e-01,	-1.08500e-04	
17	7.397836e+01	9.999848e-01,	-1.11030e-04	
18	7.570292e+01	9.999854e-01,	-1.13618e-04	
19	7.746768e+01	9.999860e-01,	-1.16267e-04	
20	7.927358e+01	9.999865e-01,	-1.18977e-04	
21	8.112158e+01	9.999872e-01,	-1.21751e-04	
22	8.301266e+01	9.999878e-01,	-1.24589e-04	
23	8.494782e+01	9.999885e-01,	-1.27494e-04	
24	8.692809e+01	9.999892e-01,	-1.30466e-04	
25	8.895453e+01	9.999900e-01,	-1.33507e-04	
26	9.102821e+01	9.999907e-01,	-1.36620e-04	
27	9.315023e+01	9.999916e-01,	-1.39805e-04	
28	9.532172e+01	9.999924e-01,	-1.43064e-04	
29	9.754382e+01	9.999933e-01,	-1.46399e-04	
30	9.981773e+01	9.999943e-01,	-1.49812e-04	
31	1.021446e+02	9.999952e-01,	-1.53305e-04	
32	1.045258e+02	9.999963e-01,	-1.56879e-04	
33	1.069625e+02	9.999973e-01,	-1.60536e-04	
34	1.094560e+02	9.999985e-01,	-1.64279e-04	
35	1.120076e+02	9.999997e-01,	-1.68109e-04	
36	1.146186e+02	1.000001e+00,	-1.72028e-04	
37	1.172906e+02	1.000002e+00,	-1.76038e-04	
38	1.200248e+02	1.000004e+00,	-1.80142e-04	
39	1.228228e+02	1.000005e+00,	-1.84342e-04	
40	1.256860e+02	1.000006e+00,	-1.88640e-04	
41	1.286160e+02	1.000008e+00,	-1.93038e-04	
42	1.316142e+02	1.000010e+00,	-1.97538e-04	
43	1.346824e+02	1.000011e+00,	-2.02144e-04	
44	1.378220e+02	1.000013e+00,	-2.06856e-04	
45	1.410349e+02	1.000015e+00,	-2.11679e-04	
46	1.443226e+02	1.000017e+00,	-2.16614e-04	
47	1.476870e+02	1.000019e+00,	-2.21664e-04	
48	1.511299e+02	1.000021e+00,	-2.26833e-04	
49	1.546530e+02	1.000023e+00,	-2.32121e-04	
50	1.582582e+02	1.000026e+00,	-2.37533e-04	
51	1.619474e+02	1.000028e+00,	-2.43071e-04	
52	1.657227e+02	1.000031e+00,	-2.48738e-04	
53	1.695860e+02	1.000034e+00,	-2.54538e-04	
54	1.735393e+02	1.000036e+00,	-2.60472e-04	

Index   frequency       v(lpf)                          
--------------------------------------------------------------------------------
55	1.775848e+02	1.000039e+00,	-2.66545e-04	
56	1.817246e+02	1.000043e+00,	-2.72760e-04	
57	1.859609e+02	1.000046e+00,	-2.79120e-04	
58	1.902959e+02	1.000049e+00,	-2.85628e-04	
59	1.947321e+02	1.000053e+00,	-2.92288e-04	
60	1.992716e+02	1.000057e+00,	-2.99103e-04	
61	2.039169e+02	1.000060e+00,	-3.06077e-04	
62	2.086706e+02	1.000065e+00,	-3.13214e-04	
63	2.135350e+02	1.000069e+00,	-3.20518e-04	
64	2.185129e+02	1.000073e+00,	-3.27991e-04	
65	2.236068e+02	1.000078e+00,	-3.35639e-04	
66	2.288194e+02	1.000083e+00,	-3.43466e-04	
67	2.341536e+02	1.000088e+00,	-3.51475e-04	
68	2.396121e+02	1.000094e+00,	-3.59671e-04	
69	2.451979e+02	1.000099e+00,	-3.68059e-04	
70	2.509138e+02	1.000105e+00,	-3.76642e-04	
71	2.567631e+02	1.000111e+00,	-3.85425e-04	
72	2.627486e+02	1.000118e+00,	-3.94413e-04	
73	2.688737e+02	1.000125e+00,	-4.03611e-04	
74	2.751416e+02	1.000132e+00,	-4.13024e-04	
75	2.815556e+02	1.000139e+00,	-4.22657e-04	
76	2.881192e+02	1.000147e+00,	-4.32514e-04	
77	2.948357e+02	1.000155e+00,	-4.42601e-04	
78	3.017088e+02	1.000164e+00,	-4.52924e-04	
79	3.087422e+02	1.000173e+00,	-4.63488e-04	
80	3.159394e+02	1.000182e+00,	-4.74299e-04	
81	3.233045e+02	1.000192e+00,	-4.85362e-04	
82	3.308413e+02	1.000203e+00,	-4.96684e-04	
83	3.385537e+02	1.000213e+00,	-5.08269e-04	
84	3.464460e+02	1.000225e+00,	-5.20126e-04	
85	3.545222e+02	1.000237e+00,	-5.32259e-04	
86	3.627867e+02	1.000249e+00,	-5.44676e-04	
87	3.712439e+02	1.000262e+00,	-5.57383e-04	
88	3.798982e+02	1.000276e+00,	-5.70387e-04	
89	3.887543e+02	1.000290e+00,	-5.83695e-04	
90	3.978168e+02	1.000305e+00,	-5.97314e-04	
91	4.070905e+02	1.000320e+00,	-6.11251e-04	
92	4.165805e+02	1.000337e+00,	-6.25514e-04	
93	4.262917e+02	1.000354e+00,	-6.40110e-04	
94	4.362292e+02	1.000372e+00,	-6.55048e-04	
95	4.463985e+02	1.000391e+00,	-6.70335e-04	
96	4.568048e+02	1.000410e+00,	-6.85980e-04	
97	4.674536e+02	1.000431e+00,	-7.01990e-04	
98	4.783508e+02	1.000453e+00,	-7.18376e-04	
99	4.895019e+02	1.000475e+00,	-7.35144e-04	
100	5.009130e+02	1.000499e+00,	-7.52305e-04	
101	5.125901e+02	1.000524e+00,	-7.69868e-04	
102	5.245394e+02	1.000550e+00,	-7.87843e-04	
103	5.367673e+02	1.000577e+00,	-8.06238e-04	
104	5.492803e+02	1.000605e+00,	-8.25064e-04	
105	5.620849e+02	1.000635e+00,	-8.44331e-04	
106	5.751880e+02	1.000666e+00,	-8.64050e-04	
107	5.885966e+02	1.000699e+00,	-8.84231e-04	
108	6.023178e+02	1.000733e+00,	-9.04885e-04	
109	6.163588e+02	1.000769e+00,	-9.26024e-04	
110	6.307272e+02	1.000807e+00,	-9.47658e-04	
111	6.454305e+02	1.000846e+00,	-9.69801e-04	
112	6.604765e+02	1.000887e+00,	-9.92463e-04	

Index   frequency       v(lpf)                          
--------------------------------------------------------------------------------
113	6.758733e+02	1.000930e+00,	-1.01566e-03	
114	6.916291e+02	1.000975e+00,	-1.03940e-03	
115	7.077521e+02	1.001022e+00,	-1.06369e-03	
116	7.242510e+02	1.001072e+00,	-1.08856e-03	
117	7.411344e+02	1.001124e+00,	-1.11402e-03	
118	7.584115e+02	1.001178e+00,	-1.14007e-03	
119	7.760914e+02	1.001235e+00,	-1.16673e-03	
120	7.941833e+02	1.001294e+00,	-1.19403e-03	
121	8.126971e+02	1.001357e+00,	-1.22196e-03	
122	8.316424e+02	1.001422e+00,	-1.25056e-03	
123	8.510294e+02	1.001490e+00,	-1.27983e-03	
124	8.708683e+02	1.001562e+00,	-1.30979e-03	
125	8.911696e+02	1.001637e+00,	-1.34045e-03	
126	9.119443e+02	1.001715e+00,	-1.37185e-03	
127	9.332032e+02	1.001797e+00,	-1.40398e-03	
128	9.549577e+02	1.001883e+00,	-1.43688e-03	
129	9.772194e+02	1.001973e+00,	-1.47055e-03	
130	1.000000e+03	1.002067e+00,	-1.50502e-03	

       * selfe_tuned_filter.cir - generated for ngspice batch simulation
       AC Analysis  Tue Sep 16 22:15:58  2025
--------------------------------------------------------------------------------
Index   frequency       v(hpf)                          
--------------------------------------------------------------------------------
0	5.000000e+01	-3.93097e-10,	3.336829e-11	
1	5.116558e+01	-4.12054e-10,	2.346920e-11	
2	5.235834e+01	-4.31757e-10,	1.257508e-11	
3	5.357890e+01	-4.52226e-10,	6.081340e-13	
4	5.482791e+01	-4.73484e-10,	-1.25160e-11	
5	5.610604e+01	-4.95550e-10,	-2.68855e-11	
6	5.741397e+01	-5.18441e-10,	-4.25983e-11	
7	5.875238e+01	-5.42177e-10,	-5.97574e-11	
8	6.012200e+01	-5.66777e-10,	-7.84730e-11	
9	6.152354e+01	-5.92255e-10,	-9.88653e-11	
10	6.295776e+01	-6.18624e-10,	-1.21062e-10	
11	6.442541e+01	-6.45897e-10,	-1.45199e-10	
12	6.592727e+01	-6.74087e-10,	-1.71425e-10	
13	6.746414e+01	-7.03193e-10,	-1.99897e-10	
14	6.903684e+01	-7.33230e-10,	-2.30786e-10	
15	7.064621e+01	-7.64191e-10,	-2.64271e-10	
16	7.229309e+01	-7.96074e-10,	-3.00549e-10	
17	7.397836e+01	-8.28873e-10,	-3.39829e-10	
18	7.570292e+01	-8.62571e-10,	-3.82334e-10	
19	7.746768e+01	-8.97147e-10,	-4.28305e-10	
20	7.927358e+01	-9.32579e-10,	-4.78002e-10	
21	8.112158e+01	-9.68827e-10,	-5.31699e-10	
22	8.301266e+01	-1.00585e-09,	-5.89694e-10	
23	8.494782e+01	-1.04359e-09,	-6.52305e-10	
24	8.692809e+01	-1.08199e-09,	-7.19874e-10	
25	8.895453e+01	-1.12097e-09,	-7.92766e-10	
26	9.102821e+01	-1.16043e-09,	-8.71374e-10	
27	9.315023e+01	-1.20027e-09,	-9.56118e-10	
28	9.532172e+01	-1.24037e-09,	-1.04745e-09	
29	9.754382e+01	-1.28057e-09,	-1.14585e-09	
30	9.981773e+01	-1.32071e-09,	-1.25185e-09	
31	1.021446e+02	-1.36061e-09,	-1.36599e-09	
32	1.045258e+02	-1.40003e-09,	-1.48887e-09	
33	1.069625e+02	-1.43873e-09,	-1.62113e-09	
34	1.094560e+02	-1.47643e-09,	-1.76346e-09	
35	1.120076e+02	-1.51281e-09,	-1.91659e-09	
36	1.146186e+02	-1.54751e-09,	-2.08131e-09	
37	1.172906e+02	-1.58011e-09,	-2.25846e-09	
38	1.200248e+02	-1.61016e-09,	-2.44895e-09	
39	1.228228e+02	-1.63715e-09,	-2.65375e-09	
40	1.256860e+02	-1.66050e-09,	-2.87390e-09	
41	1.286160e+02	-1.67955e-09,	-3.11051e-09	
42	1.316142e+02	-1.69360e-09,	-3.36478e-09	
43	1.346824e+02	-1.70183e-09,	-3.63799e-09	
44	1.378220e+02	-1.70333e-09,	-3.93151e-09	
45	1.410349e+02	-1.69712e-09,	-4.24681e-09	
46	1.443226e+02	-1.68206e-09,	-4.58547e-09	
47	1.476870e+02	-1.65692e-09,	-4.94919e-09	
48	1.511299e+02	-1.62032e-09,	-5.33977e-09	
49	1.546530e+02	-1.57073e-09,	-5.75916e-09	
50	1.582582e+02	-1.50644e-09,	-6.20943e-09	
51	1.619474e+02	-1.42556e-09,	-6.69283e-09	
52	1.657227e+02	-1.32601e-09,	-7.21174e-09	
53	1.695860e+02	-1.20548e-09,	-7.76873e-09	
54	1.735393e+02	-1.06139e-09,	-8.36655e-09	

Index   frequency       v(hpf)                          
--------------------------------------------------------------------------------
55	1.775848e+02	-8.90910e-10,	-9.00813e-09	
56	1.817246e+02	-6.90906e-10,	-9.69664e-09	
57	1.859609e+02	-4.57907e-10,	-1.04355e-08	
58	1.902959e+02	-1.88087e-10,	-1.12282e-08	
59	1.947321e+02	1.227898e-10,	-1.20788e-08	
60	1.992716e+02	4.793956e-10,	-1.29914e-08	
61	2.039169e+02	8.868849e-10,	-1.39704e-08	
62	2.086706e+02	1.350952e-09,	-1.50206e-08	
63	2.135350e+02	1.877868e-09,	-1.61473e-08	
64	2.185129e+02	2.474555e-09,	-1.73557e-08	
65	2.236068e+02	3.148641e-09,	-1.86520e-08	
66	2.288194e+02	3.908536e-09,	-2.00423e-08	
67	2.341536e+02	4.763501e-09,	-2.15334e-08	
68	2.396121e+02	5.723739e-09,	-2.31326e-08	
69	2.451979e+02	6.800492e-09,	-2.48476e-08	
70	2.509138e+02	8.006132e-09,	-2.66869e-08	
71	2.567631e+02	9.354280e-09,	-2.86592e-08	
72	2.627486e+02	1.085993e-08,	-3.07742e-08	
73	2.688737e+02	1.253958e-08,	-3.30421e-08	
74	2.751416e+02	1.441139e-08,	-3.54740e-08	
75	2.815556e+02	1.649532e-08,	-3.80815e-08	
76	2.881192e+02	1.881333e-08,	-4.08774e-08	
77	2.948357e+02	2.138960e-08,	-4.38751e-08	
78	3.017088e+02	2.425068e-08,	-4.70891e-08	
79	3.087422e+02	2.742577e-08,	-5.05350e-08	
80	3.159394e+02	3.094699e-08,	-5.42294e-08	
81	3.233045e+02	3.484962e-08,	-5.81902e-08	
82	3.308413e+02	3.917246e-08,	-6.24365e-08	
83	3.385537e+02	4.395814e-08,	-6.69888e-08	
84	3.464460e+02	4.925348e-08,	-7.18691e-08	
85	3.545222e+02	5.510998e-08,	-7.71009e-08	
86	3.627867e+02	6.158416e-08,	-8.27095e-08	
87	3.712439e+02	6.873815e-08,	-8.87219e-08	
88	3.798982e+02	7.664018e-08,	-9.51671e-08	
89	3.887543e+02	8.536521e-08,	-1.02076e-07	
90	3.978168e+02	9.499554e-08,	-1.09482e-07	
91	4.070905e+02	1.056216e-07,	-1.17422e-07	
92	4.165805e+02	1.173426e-07,	-1.25932e-07	
93	4.262917e+02	1.302677e-07,	-1.35054e-07	
94	4.362292e+02	1.445164e-07,	-1.44833e-07	
95	4.463985e+02	1.602203e-07,	-1.55314e-07	
96	4.568048e+02	1.775236e-07,	-1.66550e-07	
97	4.674536e+02	1.965848e-07,	-1.78593e-07	
98	4.783508e+02	2.175777e-07,	-1.91502e-07	
99	4.895019e+02	2.406932e-07,	-2.05339e-07	
100	5.009130e+02	2.661410e-07,	-2.20171e-07	
101	5.125901e+02	2.941509e-07,	-2.36069e-07	
102	5.245394e+02	3.249756e-07,	-2.53109e-07	
103	5.367673e+02	3.588920e-07,	-2.71375e-07	
104	5.492803e+02	3.962043e-07,	-2.90953e-07	
105	5.620849e+02	4.372463e-07,	-3.11938e-07	
106	5.751880e+02	4.823844e-07,	-3.34431e-07	
107	5.885966e+02	5.320204e-07,	-3.58541e-07	
108	6.023178e+02	5.865955e-07,	-3.84384e-07	
109	6.163588e+02	6.465939e-07,	-4.12084e-07	
110	6.307272e+02	7.125469e-07,	-4.41775e-07	
111	6.454305e+02	7.850372e-07,	-4.73599e-07	
112	6.604765e+02	8.647047e-07,	-5.07712e-07	

Index   frequency       v(hpf)                          
--------------------------------------------------------------------------------
113	6.758733e+02	9.522512e-07,	-5.44276e-07	
114	6.916291e+02	1.048447e-06,	-5.83469e-07	
115	7.077521e+02	1.154137e-06,	-6.25480e-07	
116	7.242510e+02	1.270248e-06,	-6.70511e-07	
117	7.411344e+02	1.397798e-06,	-7.18780e-07	
118	7.584115e+02	1.537903e-06,	-7.70520e-07	
119	7.760914e+02	1.691788e-06,	-8.25981e-07	
120	7.941833e+02	1.860796e-06,	-8.85430e-07	
121	8.126971e+02	2.046402e-06,	-9.49157e-07	
122	8.316424e+02	2.250224e-06,	-1.01747e-06	
123	8.510294e+02	2.474036e-06,	-1.09069e-06	
124	8.708683e+02	2.719785e-06,	-1.16919e-06	
125	8.911696e+02	2.989607e-06,	-1.25334e-06	
126	9.119443e+02	3.285847e-06,	-1.34354e-06	
127	9.332032e+02	3.611075e-06,	-1.44024e-06	
128	9.549577e+02	3.968113e-06,	-1.54391e-06	
129	9.772194e+02	4.360057e-06,	-1.65504e-06	
130	1.000000e+03	4.790303e-06,	-1.77418e-06	

       * selfe_tuned_filter.cir - generated for ngspice batch simulation
       AC Analysis  Tue Sep 16 22:15:58  2025
--------------------------------------------------------------------------------
Index   frequency       v(v_f3)                         
--------------------------------------------------------------------------------
0	5.000000e+01	0.000000e+00,	0.000000e+00	
1	5.116558e+01	0.000000e+00,	0.000000e+00	
